
T4120 000:032 SEGGER J-Link V6.10i Log File (0001ms, 0014ms total)
T4120 000:032 DLL Compiled: Oct 25 2016 19:31:51 (0001ms, 0014ms total)
T4120 000:032 Logging started @ 2017-03-06 23:56 (0001ms, 0014ms total)
T4120 000:033 JLINK_SetWarnOutHandler(...) (0000ms, 0014ms total)
T4120 000:033 JLINK_OpenEx(...)SERVER_Parent Server (S/N 591066587) is using protocol version 51204 which is too old (>= 54110 required). Closing connection to server. (0003ms, 0017ms total)
T4120 000:033 
Firmware: J-Link Lite-XMC4200 Rev.1 compiled Jan 14 2016 11:19:27
Hardware: V1.00
S/N: 591066587WEBSRV Webserver running on local port 19080 (0010ms, 0024ms total)
T4120 000:033   returns O.K. (0010ms, 0024ms total)
T4120 000:043 JLINK_SetErrorOutHandler(...) (0000ms, 0024ms total)
T4120 000:043 JLINK_ExecCommand("ProjectFile = "C:\Users\ciara\Dropbox\Applied-Computing\Semester 2\Embedded Systems\Counter_Capture\JLinkSettings.ini"", ...).   returns 0x00 (0155ms, 0179ms total)
T4120 000:198 JLINK_ExecCommand("Device = XMC1100-Q024x0064", ...). Device "XMC1100-0064" selected.  returns 0x00 (0000ms, 0179ms total)
T4120 000:198 JLINK_ExecCommand("DisableConnectionTimeout", ...).   returns 0x01 (0000ms, 0179ms total)
T4120 000:198 JLINK_GetHardwareVersion()  returns 0x2710 (0000ms, 0179ms total)
T4120 000:198 JLINK_GetDLLVersion()  returns 61009 (0000ms, 0179ms total)
T4120 000:198 JLINK_GetFirmwareString(...) (0000ms, 0179ms total)
T4120 000:198 JLINK_GetDLLVersion()  returns 61009 (0000ms, 0179ms total)
T4120 000:198 JLINK_GetCompileDateTime() (0000ms, 0179ms total)
T4120 000:198 JLINK_GetFirmwareString(...) (0000ms, 0179ms total)
T4120 000:198 JLINK_GetHardwareVersion()  returns 0x2710 (0000ms, 0179ms total)
T4120 000:198 JLINK_TIF_Select(JLINKARM_TIF_SWD)  returns 0x00 (0001ms, 0180ms total)
T4120 000:199 JLINK_SetSpeed(5000) (0002ms, 0182ms total)
T4120 000:201 JLINK_GetId()Performing XMC1000 connection sequence.Firmware of connected J-Link (S/N 591066587) is too old and does not support connect for this device. Debugging may not be reliableTrying to identify target via SPD >0x108 TIF>Could not identify target via SPD. Trying again via SWD. >0x108 TIF>Found SWD-DP with ID 0x0BB11477 >0x0D TIF> >0x28 TIF> >0x0D TIF> >0x28 TIF> >0x0D TIF> >0x28 TIF> >0x0D TIF> >0x28 TIF> >0x0D TIF> >0x21 TIF> >0x0D TIF> >0x28 TIF> >0x0D TIF> >0x28 TIF> >0x0D TIF>
 >0x21 TIF> >0x0D TIF> >0x21 TIF> >0x0D TIF> >0x21 TIF>AP-IDR: 0x04770021, Type: AHB-AP >0x0D TIF> >0x28 TIF> >0x0D TIF> >0x28 TIF> >0x0D TIF> >0x28 TIF> >0x0D TIF> >0x21 TIF> >0x0D TIF> >0x21 TIF> >0x0D TIF> >0x28 TIF> >0x0D TIF> >0x21 TIF> >0x0D TIF> >0x21 TIF>Found Cortex-M0 r0p0, Little endian. -- CPU_ReadMem(4 bytes @ 0xE000EDF0) -- CPU_ReadMem(4 bytes @ 0xE0002000)FPUnit: 4 code (BP) slots and 0 literal slots -- CPU_ReadMem(4 bytes @ 0xE000EDFC) -- CPU_ReadMem(4 bytes @ 0xE0001000)
 -- CPU_WriteMem(4 bytes @ 0xE0001000)CoreSight components:ROMTbl 0 @ F0000000 -- CPU_ReadMem(16 bytes @ 0xF0000000) -- CPU_ReadMem(16 bytes @ 0xE00FFFF0) -- CPU_ReadMem(16 bytes @ 0xE00FFFE0)ROMTbl 0 [0]: F00FF000, CID: B105100D, PID: 000BB471 ROM TableROMTbl 1 @ E00FF000 -- CPU_ReadMem(16 bytes @ 0xE00FF000) -- CPU_ReadMem(16 bytes @ 0xE000EFF0) -- CPU_ReadMem(16 bytes @ 0xE000EFE0)ROMTbl 1 [0]: FFF0F000, CID: B105E00D, PID: 000BB008 SCS -- CPU_ReadMem(16 bytes @ 0xE0001FF0)
 -- CPU_ReadMem(16 bytes @ 0xE0001FE0)ROMTbl 1 [1]: FFF02000, CID: B105E00D, PID: 000BB00A DWT -- CPU_ReadMem(16 bytes @ 0xE0002FF0) -- CPU_ReadMem(16 bytes @ 0xE0002FE0)ROMTbl 1 [2]: FFF03000, CID: B105E00D, PID: 000BB00B FPB >0x0D TIF> >0x21 TIF>  returns 0x0BB11477 (0016ms, 0198ms total)
T4120 000:217 JLINK_GetDLLVersion()  returns 61009 (0000ms, 0198ms total)
T4120 000:217 JLINK_CORE_GetFound()  returns 0x60000FF (0000ms, 0198ms total)
T4120 000:217 JLINK_GetDebugInfo(0x100) -- Value=0xF0000000  returns 0x00 (0000ms, 0198ms total)
T4120 000:217 JLINK_GetDebugInfo(0x100) -- Value=0xF0000000  returns 0x00 (0000ms, 0198ms total)
T4120 000:217 JLINK_GetDebugInfo(0x101) -- Value=0x00000000  returns 0x00 (0000ms, 0198ms total)
T4120 000:217 JLINK_ReadMem (0xE0041FF0, 0x0010 Bytes, ...) -- CPU is running -- CPU_ReadMem(16 bytes @ 0xE0041FF0) - Data: 00 00 00 00 00 00 00 00 00 00 00 00 00 00 00 00  returns 0x00 (0001ms, 0199ms total)
T4120 000:218 JLINK_GetDebugInfo(0x102) -- Value=0x00000000  returns 0x00 (0000ms, 0199ms total)
T4120 000:218 JLINK_GetDebugInfo(0x103) -- Value=0x00000000  returns 0x00 (0000ms, 0199ms total)
T4120 000:218 JLINK_ReadMem (0xE0040FF0, 0x0010 Bytes, ...) -- CPU is running -- CPU_ReadMem(16 bytes @ 0xE0040FF0) - Data: 00 00 00 00 00 00 00 00 00 00 00 00 00 00 00 00  returns 0x00 (0001ms, 0200ms total)
T4120 000:219 JLINK_GetDebugInfo(0x104) -- Value=0xE0000000  returns 0x00 (0000ms, 0200ms total)
T4120 000:219 JLINK_GetDebugInfo(0x105) -- Value=0xE0001000  returns 0x00 (0000ms, 0200ms total)
T4120 000:219 JLINK_GetDebugInfo(0x106) -- Value=0xE0002000  returns 0x00 (0000ms, 0200ms total)
T4120 000:219 JLINK_GetDebugInfo(0x107) -- Value=0xE000E000  returns 0x00 (0000ms, 0200ms total)
T4120 000:219 JLINK_GetDebugInfo(0x10C) -- Value=0xE000EDF0  returns 0x00 (0000ms, 0200ms total)
T4120 000:219 JLINK_ReadMemU32(0xE000ED00, 0x0001 Items, ...) -- CPU is running -- CPU_ReadMem(4 bytes @ 0xE000ED00) - Data: 00 C2 0C 41  returns 0x01 (0001ms, 0201ms total)
T4120 000:220 JLINK_SetResetType(JLINKARM_RESET_TYPE_NORMAL)  returns JLINKARM_RESET_TYPE_NORMAL (0000ms, 0201ms total)
T4120 000:220 JLINK_Reset()Performing XMC1000 reset -- CPU_ReadMem(4 bytes @ 0x10001004) -- CPU_WriteMem(4 bytes @ 0xE0002000) -- CPU_ReadMem(4 bytes @ 0xE0002008) -- CPU_WriteMem(4 bytes @ 0xE0002008) -- CPU_WriteMem(4 bytes @ 0xE000ED0C) -- CPU is running -- CPU_WriteMem(4 bytes @ 0xE0002008) -- CPU_WriteMem(4 bytes @ 0xE0002000) -- CPU_ReadMem(4 bytes @ 0xE000EDFC) -- CPU_ReadMem(4 bytes @ 0xE0001000) -- CPU_WriteMem(4 bytes @ 0xE0001000) (0031ms, 0232ms total)
T4120 000:251 JLINK_ReadReg(R15 (PC))  returns 0x100010BC (0000ms, 0232ms total)
T4120 000:251 JLINK_ReadReg(XPSR)  returns 0x61000000 (0000ms, 0232ms total)
T4120 000:251 JLINK_Halt()  returns 0x00 (0000ms, 0232ms total)
T4120 000:251 JLINK_IsHalted()  returns TRUE (0000ms, 0232ms total)
T4120 000:251 JLINK_ReadMemU32(0xE000EDF0, 0x0001 Items, ...) -- CPU_ReadMem(4 bytes @ 0xE000EDF0) - Data: 03 00 03 00  returns 0x01 (0001ms, 0233ms total)
T4120 000:252 JLINK_WriteU32(0xE000EDF0, 0xA05F0003) -- CPU_WriteMem(4 bytes @ 0xE000EDF0)  returns 0x00 (0001ms, 0234ms total)
T4120 000:253 JLINK_WriteU32(0xE000EDFC, 0x01000000) -- CPU_WriteMem(4 bytes @ 0xE000EDFC)  returns 0x00 (0000ms, 0234ms total)
T4120 000:253 JLINK_GetHWStatus(...)  returns 0x00 (0000ms, 0234ms total)
T4120 000:253 JLINK_GetNumBPUnits(Type = 0xFFFFFF00)  returns 0x04 (0000ms, 0234ms total)
T4120 000:253 JLINK_GetNumBPUnits(Type = 0xF0)  returns 0x2000 (0000ms, 0234ms total)
T4120 000:253 JLINK_GetNumWPUnits()  returns 0x02 (0000ms, 0234ms total)
T4120 000:253 JLINK_GetSpeed()  returns 0xBB8 (0000ms, 0234ms total)
T4120 000:253 JLINK_ReadMemU32(0xE000E004, 0x0001 Items, ...) -- CPU_ReadMem(4 bytes @ 0xE000E004) - Data: 00 00 00 00  returns 0x01 (0001ms, 0235ms total)
T4120 000:254 JLINK_ReadReg(R15 (PC))  returns 0x100010BC (0000ms, 0235ms total)
T4120 000:254 JLINK_ReadReg(XPSR)  returns 0x61000000 (0000ms, 0235ms total)
T4120 000:339 JLINK_SetResetType(JLINKARM_RESET_TYPE_NORMAL)  returns JLINKARM_RESET_TYPE_NORMAL (0000ms, 0235ms total)
T4120 000:339 JLINK_Reset()Performing XMC1000 reset -- CPU_ReadMem(4 bytes @ 0x10001004) -- CPU_WriteMem(4 bytes @ 0xE0002000) -- CPU_ReadMem(4 bytes @ 0xE0002008) -- CPU_WriteMem(4 bytes @ 0xE0002008) -- CPU_WriteMem(4 bytes @ 0xE000ED0C) -- CPU is running -- CPU_WriteMem(4 bytes @ 0xE0002008) -- CPU_WriteMem(4 bytes @ 0xE0002000) -- CPU_ReadMem(4 bytes @ 0xE000EDFC) -- CPU_ReadMem(4 bytes @ 0xE0001000) -- CPU_WriteMem(4 bytes @ 0xE0001000) (0028ms, 0263ms total)
T4120 000:367 JLINK_ReadReg(R15 (PC))  returns 0x100010BC (0000ms, 0263ms total)
T4120 000:367 JLINK_ReadReg(XPSR)  returns 0x61000000 (0000ms, 0263ms total)
T4120 000:368 JLINK_ReadMem (0x100010BC, 0x003C Bytes, ...) -- CPU_ReadMem(128 bytes @ 0x10001080) -- Updating C cache (128 bytes @ 0x10001080) -- Read from C cache (60 bytes @ 0x100010BC) - Data: 08 49 09 4A 30 20 0A 60 04 31 40 1E FB D1 07 48 ...  returns 0x00 (0001ms, 0264ms total)
T4120 000:442 JLINK_ReadMem (0x48040100, 0x0008 Bytes, ...) -- CPU_ReadMem(8 bytes @ 0x48040100) - Data: 00 00 00 00 00 00 00 00  returns 0x00 (0000ms, 0264ms total)
T4120 000:443 JLINK_ReadMem (0x48040108, 0x0004 Bytes, ...) -- CPU_ReadMem(4 bytes @ 0x48040108) - Data: 00 00 00 00  returns 0x00 (0000ms, 0264ms total)
T4120 000:443 JLINK_ReadMem (0x48040114, 0x0028 Bytes, ...) -- CPU_ReadMem(40 bytes @ 0x48040114) - Data: 00 00 00 00 00 00 00 00 00 00 00 00 00 00 00 00 ...  returns 0x00 (0001ms, 0265ms total)
T4120 000:444 JLINK_ReadMem (0x4804013C, 0x0004 Bytes, ...) -- CPU_ReadMem(4 bytes @ 0x4804013C) - Data: 00 00 00 00  returns 0x00 (0001ms, 0266ms total)
T4120 000:445 JLINK_ReadMem (0x48040170, 0x0004 Bytes, ...) -- CPU_ReadMem(4 bytes @ 0x48040170) - Data: 00 00 00 00  returns 0x00 (0001ms, 0267ms total)
T4120 000:446 JLINK_ReadMem (0x480401A0, 0x0008 Bytes, ...) -- CPU_ReadMem(8 bytes @ 0x480401A0) - Data: 00 00 00 00 00 00 00 00  returns 0x00 (0000ms, 0267ms total)
T4120 000:446 JLINK_ReadMem (0x480401A8, 0x0004 Bytes, ...) -- CPU_ReadMem(4 bytes @ 0x480401A8) - Data: 00 00 00 00  returns 0x00 (0001ms, 0268ms total)
T4120 000:485 JLINK_ReadMem (0x48040200, 0x0008 Bytes, ...) -- CPU_ReadMem(8 bytes @ 0x48040200) - Data: 00 00 00 00 00 00 00 00  returns 0x00 (0000ms, 0268ms total)
T4120 000:485 JLINK_ReadMem (0x48040208, 0x0004 Bytes, ...) -- CPU_ReadMem(4 bytes @ 0x48040208) - Data: 00 00 00 00  returns 0x00 (0001ms, 0269ms total)
T4120 000:486 JLINK_ReadMem (0x48040214, 0x0028 Bytes, ...) -- CPU_ReadMem(40 bytes @ 0x48040214) - Data: 00 00 00 00 00 00 00 00 00 00 00 00 00 00 00 00 ...  returns 0x00 (0001ms, 0270ms total)
T4120 000:487 JLINK_ReadMem (0x4804023C, 0x0004 Bytes, ...) -- CPU_ReadMem(4 bytes @ 0x4804023C) - Data: 00 00 00 00  returns 0x00 (0000ms, 0270ms total)
T4120 000:487 JLINK_ReadMem (0x48040270, 0x0004 Bytes, ...) -- CPU_ReadMem(4 bytes @ 0x48040270) - Data: 00 00 00 00  returns 0x00 (0001ms, 0271ms total)
T4120 000:488 JLINK_ReadMem (0x480402A0, 0x0008 Bytes, ...) -- CPU_ReadMem(8 bytes @ 0x480402A0) - Data: 00 00 00 00 00 00 00 00  returns 0x00 (0001ms, 0272ms total)
T4120 000:489 JLINK_ReadMem (0x480402A8, 0x0004 Bytes, ...) -- CPU_ReadMem(4 bytes @ 0x480402A8) - Data: 00 00 00 00  returns 0x00 (0001ms, 0273ms total)
T4120 001:743 JLINK_ReadMem (0x48040200, 0x0008 Bytes, ...) -- CPU_ReadMem(8 bytes @ 0x48040200) - Data: 00 00 00 00 00 00 00 00  returns 0x00 (0001ms, 0274ms total)
T4120 001:744 JLINK_ReadMem (0x48040208, 0x0004 Bytes, ...) -- CPU_ReadMem(4 bytes @ 0x48040208) - Data: 00 00 00 00  returns 0x00 (0001ms, 0275ms total)
T4120 001:745 JLINK_ReadMem (0x48040214, 0x0028 Bytes, ...) -- CPU_ReadMem(40 bytes @ 0x48040214) - Data: 00 00 00 00 00 00 00 00 00 00 00 00 00 00 00 00 ...  returns 0x00 (0001ms, 0276ms total)
T4120 001:746 JLINK_ReadMem (0x4804023C, 0x0004 Bytes, ...) -- CPU_ReadMem(4 bytes @ 0x4804023C) - Data: 00 00 00 00  returns 0x00 (0000ms, 0276ms total)
T4120 001:746 JLINK_ReadMem (0x48040270, 0x0004 Bytes, ...) -- CPU_ReadMem(4 bytes @ 0x48040270) - Data: 00 00 00 00  returns 0x00 (0001ms, 0277ms total)
T4120 001:747 JLINK_ReadMem (0x480402A0, 0x0008 Bytes, ...) -- CPU_ReadMem(8 bytes @ 0x480402A0) - Data: 00 00 00 00 00 00 00 00  returns 0x00 (0001ms, 0278ms total)
T4120 001:748 JLINK_ReadMem (0x480402A8, 0x0004 Bytes, ...) -- CPU_ReadMem(4 bytes @ 0x480402A8) - Data: 00 00 00 00  returns 0x00 (0000ms, 0278ms total)
T4120 001:749 JLINK_ReadMem (0x48040100, 0x0008 Bytes, ...) -- CPU_ReadMem(8 bytes @ 0x48040100) - Data: 00 00 00 00 00 00 00 00  returns 0x00 (0000ms, 0278ms total)
T4120 001:749 JLINK_ReadMem (0x48040108, 0x0004 Bytes, ...) -- CPU_ReadMem(4 bytes @ 0x48040108) - Data: 00 00 00 00  returns 0x00 (0001ms, 0279ms total)
T4120 001:750 JLINK_ReadMem (0x48040114, 0x0028 Bytes, ...) -- CPU_ReadMem(40 bytes @ 0x48040114) - Data: 00 00 00 00 00 00 00 00 00 00 00 00 00 00 00 00 ...  returns 0x00 (0001ms, 0280ms total)
T4120 001:751 JLINK_ReadMem (0x4804013C, 0x0004 Bytes, ...) -- CPU_ReadMem(4 bytes @ 0x4804013C) - Data: 00 00 00 00  returns 0x00 (0001ms, 0281ms total)
T4120 001:752 JLINK_ReadMem (0x48040170, 0x0004 Bytes, ...) -- CPU_ReadMem(4 bytes @ 0x48040170) - Data: 00 00 00 00  returns 0x00 (0000ms, 0281ms total)
T4120 001:752 JLINK_ReadMem (0x480401A0, 0x0008 Bytes, ...) -- CPU_ReadMem(8 bytes @ 0x480401A0) - Data: 00 00 00 00 00 00 00 00  returns 0x00 (0001ms, 0282ms total)
T4120 001:753 JLINK_ReadMem (0x480401A8, 0x0004 Bytes, ...) -- CPU_ReadMem(4 bytes @ 0x480401A8) - Data: 00 00 00 00  returns 0x00 (0000ms, 0282ms total)
T212C 003:508 JLINK_Go() -- CPU_ReadMem(4 bytes @ 0xE0001000) -- CPU_WriteMem(4 bytes @ 0xE0001000) -- CPU_WriteMem(4 bytes @ 0xE0001004) (0002ms, 0284ms total)
T212C 003:612 JLINK_IsHalted()  returns FALSE (0000ms, 0284ms total)
T212C 003:713 JLINK_IsHalted()  returns FALSE (0000ms, 0284ms total)
T212C 003:814 JLINK_IsHalted()  returns FALSE (0000ms, 0284ms total)
T212C 003:915 JLINK_IsHalted()  returns FALSE (0000ms, 0284ms total)
T212C 004:016 JLINK_IsHalted()  returns FALSE (0000ms, 0284ms total)
T4120 004:118 JLINK_ReadMem (0x48040200, 0x0008 Bytes, ...) -- CPU is running -- CPU_ReadMem(8 bytes @ 0x48040200) - Data: 11 00 09 00 90 00 00 00  returns 0x00 (0001ms, 0285ms total)
T4120 004:119 JLINK_ReadMem (0x48040208, 0x0004 Bytes, ...) -- CPU is running -- CPU_ReadMem(4 bytes @ 0x48040208) - Data: 01 00 00 00  returns 0x00 (0000ms, 0285ms total)
T4120 004:119 JLINK_ReadMem (0x48040214, 0x0028 Bytes, ...) -- CPU is running -- CPU_ReadMem(40 bytes @ 0x48040214) - Data: 68 00 00 00 00 00 00 00 00 00 00 00 00 00 00 00 ...  returns 0x00 (0001ms, 0286ms total)
T4120 004:120 JLINK_ReadMem (0x4804023C, 0x0004 Bytes, ...) -- CPU is running -- CPU_ReadMem(4 bytes @ 0x4804023C) - Data: 00 00 00 00  returns 0x00 (0001ms, 0287ms total)
T4120 004:121 JLINK_ReadMem (0x48040270, 0x0004 Bytes, ...) -- CPU is running -- CPU_ReadMem(4 bytes @ 0x48040270) - Data: A9 EA 00 00  returns 0x00 (0001ms, 0288ms total)
T4120 004:122 JLINK_ReadMem (0x480402A0, 0x0008 Bytes, ...) -- CPU is running -- CPU_ReadMem(8 bytes @ 0x480402A0) - Data: 01 00 00 00 00 01 00 00  returns 0x00 (0001ms, 0289ms total)
T4120 004:123 JLINK_ReadMem (0x480402A8, 0x0004 Bytes, ...) -- CPU is running -- CPU_ReadMem(4 bytes @ 0x480402A8) - Data: 00 02 00 00  returns 0x00 (0000ms, 0289ms total)
T4120 004:125 JLINK_ReadMem (0x48040100, 0x0008 Bytes, ...) -- CPU is running -- CPU_ReadMem(8 bytes @ 0x48040100) - Data: 01 00 42 00 00 40 00 00  returns 0x00 (0001ms, 0290ms total)
T4120 004:126 JLINK_ReadMem (0x48040108, 0x0004 Bytes, ...) -- CPU is running -- CPU_ReadMem(4 bytes @ 0x48040108) - Data: 01 00 00 00  returns 0x00 (0001ms, 0291ms total)
T4120 004:127 JLINK_ReadMem (0x48040114, 0x0028 Bytes, ...) -- CPU is running -- CPU_ReadMem(40 bytes @ 0x48040114) - Data: 00 00 00 00 00 00 00 00 00 00 00 00 00 00 00 00 ...  returns 0x00 (0001ms, 0292ms total)
T4120 004:128 JLINK_ReadMem (0x4804013C, 0x0004 Bytes, ...) -- CPU is running -- CPU_ReadMem(4 bytes @ 0x4804013C) - Data: 06 00 00 00  returns 0x00 (0000ms, 0292ms total)
T4120 004:128 JLINK_ReadMem (0x48040170, 0x0004 Bytes, ...) -- CPU is running -- CPU_ReadMem(4 bytes @ 0x48040170) - Data: 00 00 00 00  returns 0x00 (0001ms, 0293ms total)
T4120 004:129 JLINK_ReadMem (0x480401A0, 0x0008 Bytes, ...) -- CPU is running -- CPU_ReadMem(8 bytes @ 0x480401A0) - Data: 00 00 00 00 04 01 00 00  returns 0x00 (0001ms, 0294ms total)
T4120 004:130 JLINK_ReadMem (0x480401A8, 0x0004 Bytes, ...) -- CPU is running -- CPU_ReadMem(4 bytes @ 0x480401A8) - Data: 04 00 00 00  returns 0x00 (0000ms, 0294ms total)
T212C 004:158 JLINK_IsHalted()  returns FALSE (0001ms, 0295ms total)
T212C 004:259 JLINK_IsHalted()  returns FALSE (0001ms, 0295ms total)
T212C 004:360 JLINK_IsHalted()  returns FALSE (0000ms, 0294ms total)
T212C 004:461 JLINK_IsHalted()  returns FALSE (0000ms, 0294ms total)
T212C 004:561 JLINK_IsHalted()  returns FALSE (0001ms, 0295ms total)
T4120 004:662 JLINK_ReadMem (0x48040200, 0x0008 Bytes, ...) -- CPU is running -- CPU_ReadMem(8 bytes @ 0x48040200) - Data: 11 00 09 00 90 00 00 00  returns 0x00 (0001ms, 0295ms total)
T4120 004:663 JLINK_ReadMem (0x48040208, 0x0004 Bytes, ...) -- CPU is running -- CPU_ReadMem(4 bytes @ 0x48040208) - Data: 01 00 00 00  returns 0x00 (0000ms, 0295ms total)
T4120 004:663 JLINK_ReadMem (0x48040214, 0x0028 Bytes, ...) -- CPU is running -- CPU_ReadMem(40 bytes @ 0x48040214) - Data: 68 00 00 00 00 00 00 00 00 00 00 00 00 00 00 00 ...  returns 0x00 (0001ms, 0296ms total)
T4120 004:664 JLINK_ReadMem (0x4804023C, 0x0004 Bytes, ...) -- CPU is running -- CPU_ReadMem(4 bytes @ 0x4804023C) - Data: 00 00 00 00  returns 0x00 (0000ms, 0296ms total)
T4120 004:664 JLINK_ReadMem (0x48040270, 0x0004 Bytes, ...) -- CPU is running -- CPU_ReadMem(4 bytes @ 0x48040270) - Data: 61 34 00 00  returns 0x00 (0000ms, 0296ms total)
T4120 004:664 JLINK_ReadMem (0x480402A0, 0x0008 Bytes, ...) -- CPU is running -- CPU_ReadMem(8 bytes @ 0x480402A0) - Data: 01 00 00 00 00 01 00 00  returns 0x00 (0001ms, 0297ms total)
T4120 004:665 JLINK_ReadMem (0x480402A8, 0x0004 Bytes, ...) -- CPU is running -- CPU_ReadMem(4 bytes @ 0x480402A8) - Data: 00 02 00 00  returns 0x00 (0000ms, 0297ms total)
T4120 004:665 JLINK_ReadMem (0x48040100, 0x0008 Bytes, ...) -- CPU is running -- CPU_ReadMem(8 bytes @ 0x48040100) - Data: 01 00 42 00 00 40 00 00  returns 0x00 (0001ms, 0298ms total)
T4120 004:666 JLINK_ReadMem (0x48040108, 0x0004 Bytes, ...) -- CPU is running -- CPU_ReadMem(4 bytes @ 0x48040108) - Data: 01 00 00 00  returns 0x00 (0000ms, 0298ms total)
T4120 004:666 JLINK_ReadMem (0x48040114, 0x0028 Bytes, ...) -- CPU is running -- CPU_ReadMem(40 bytes @ 0x48040114) - Data: 00 00 00 00 00 00 00 00 00 00 00 00 00 00 00 00 ...  returns 0x00 (0001ms, 0299ms total)
T4120 004:667 JLINK_ReadMem (0x4804013C, 0x0004 Bytes, ...) -- CPU is running -- CPU_ReadMem(4 bytes @ 0x4804013C) - Data: 06 00 00 00  returns 0x00 (0000ms, 0299ms total)
T4120 004:667 JLINK_ReadMem (0x48040170, 0x0004 Bytes, ...) -- CPU is running -- CPU_ReadMem(4 bytes @ 0x48040170) - Data: 00 00 00 00  returns 0x00 (0000ms, 0299ms total)
T4120 004:667 JLINK_ReadMem (0x480401A0, 0x0008 Bytes, ...) -- CPU is running -- CPU_ReadMem(8 bytes @ 0x480401A0) - Data: 00 00 00 00 04 01 00 00  returns 0x00 (0001ms, 0300ms total)
T4120 004:668 JLINK_ReadMem (0x480401A8, 0x0004 Bytes, ...) -- CPU is running -- CPU_ReadMem(4 bytes @ 0x480401A8) - Data: 04 00 00 00  returns 0x00 (0000ms, 0300ms total)
T212C 004:670 JLINK_IsHalted()  returns FALSE (0000ms, 0300ms total)
T212C 004:771 JLINK_IsHalted()  returns FALSE (0000ms, 0300ms total)
T212C 004:872 JLINK_IsHalted()  returns FALSE (0000ms, 0300ms total)
T212C 004:973 JLINK_IsHalted()  returns FALSE (0000ms, 0300ms total)
T212C 005:074 JLINK_IsHalted()  returns FALSE (0000ms, 0300ms total)
T4120 005:175 JLINK_ReadMem (0x48040200, 0x0008 Bytes, ...) -- CPU is running -- CPU_ReadMem(8 bytes @ 0x48040200) - Data: 11 00 09 00 90 00 00 00  returns 0x00 (0000ms, 0300ms total)
T4120 005:175 JLINK_ReadMem (0x48040208, 0x0004 Bytes, ...) -- CPU is running -- CPU_ReadMem(4 bytes @ 0x48040208) - Data: 01 00 00 00  returns 0x00 (0001ms, 0301ms total)
T4120 005:176 JLINK_ReadMem (0x48040214, 0x0028 Bytes, ...) -- CPU is running -- CPU_ReadMem(40 bytes @ 0x48040214) - Data: 68 00 00 00 00 00 00 00 00 00 00 00 00 00 00 00 ...  returns 0x00 (0001ms, 0302ms total)
T4120 005:177 JLINK_ReadMem (0x4804023C, 0x0004 Bytes, ...) -- CPU is running -- CPU_ReadMem(4 bytes @ 0x4804023C) - Data: 00 00 00 00  returns 0x00 (0001ms, 0303ms total)
T4120 005:178 JLINK_ReadMem (0x48040270, 0x0004 Bytes, ...) -- CPU is running -- CPU_ReadMem(4 bytes @ 0x48040270) - Data: 71 70 00 00  returns 0x00 (0001ms, 0304ms total)
T4120 005:179 JLINK_ReadMem (0x480402A0, 0x0008 Bytes, ...) -- CPU is running -- CPU_ReadMem(8 bytes @ 0x480402A0) - Data: 01 00 00 00 00 01 00 00  returns 0x00 (0000ms, 0304ms total)
T4120 005:179 JLINK_ReadMem (0x480402A8, 0x0004 Bytes, ...) -- CPU is running -- CPU_ReadMem(4 bytes @ 0x480402A8) - Data: 00 02 00 00  returns 0x00 (0001ms, 0305ms total)
T4120 005:181 JLINK_ReadMem (0x48040100, 0x0008 Bytes, ...) -- CPU is running -- CPU_ReadMem(8 bytes @ 0x48040100) - Data: 01 00 42 00 00 40 00 00  returns 0x00 (0000ms, 0305ms total)
T4120 005:181 JLINK_ReadMem (0x48040108, 0x0004 Bytes, ...) -- CPU is running -- CPU_ReadMem(4 bytes @ 0x48040108) - Data: 01 00 00 00  returns 0x00 (0001ms, 0306ms total)
T4120 005:182 JLINK_ReadMem (0x48040114, 0x0028 Bytes, ...) -- CPU is running -- CPU_ReadMem(40 bytes @ 0x48040114) - Data: 00 00 00 00 00 00 00 00 00 00 00 00 00 00 00 00 ...  returns 0x00 (0001ms, 0307ms total)
T4120 005:183 JLINK_ReadMem (0x4804013C, 0x0004 Bytes, ...) -- CPU is running -- CPU_ReadMem(4 bytes @ 0x4804013C) - Data: 06 00 00 00  returns 0x00 (0000ms, 0307ms total)
T4120 005:183 JLINK_ReadMem (0x48040170, 0x0004 Bytes, ...) -- CPU is running -- CPU_ReadMem(4 bytes @ 0x48040170) - Data: 00 00 00 00  returns 0x00 (0001ms, 0308ms total)
T4120 005:184 JLINK_ReadMem (0x480401A0, 0x0008 Bytes, ...) -- CPU is running -- CPU_ReadMem(8 bytes @ 0x480401A0) - Data: 00 00 00 00 04 01 00 00  returns 0x00 (0001ms, 0309ms total)
T4120 005:185 JLINK_ReadMem (0x480401A8, 0x0004 Bytes, ...) -- CPU is running -- CPU_ReadMem(4 bytes @ 0x480401A8) - Data: 04 00 00 00  returns 0x00 (0001ms, 0310ms total)
T212C 005:186 JLINK_IsHalted()  returns FALSE (0001ms, 0311ms total)
T212C 005:288 JLINK_IsHalted()  returns FALSE (0000ms, 0310ms total)
T212C 005:389 JLINK_IsHalted()  returns FALSE (0001ms, 0311ms total)
T212C 005:491 JLINK_IsHalted()  returns FALSE (0001ms, 0311ms total)
T212C 005:593 JLINK_IsHalted()  returns FALSE (0000ms, 0310ms total)
T4120 005:694 JLINK_ReadMem (0x48040200, 0x0008 Bytes, ...) -- CPU is running -- CPU_ReadMem(8 bytes @ 0x48040200) - Data: 11 00 09 00 90 00 00 00  returns 0x00 (0000ms, 0310ms total)
T4120 005:694 JLINK_ReadMem (0x48040208, 0x0004 Bytes, ...) -- CPU is running -- CPU_ReadMem(4 bytes @ 0x48040208) - Data: 01 00 00 00  returns 0x00 (0001ms, 0311ms total)
T4120 005:695 JLINK_ReadMem (0x48040214, 0x0028 Bytes, ...) -- CPU is running -- CPU_ReadMem(40 bytes @ 0x48040214) - Data: 68 00 00 00 00 00 00 00 00 00 00 00 00 00 00 00 ...  returns 0x00 (0002ms, 0313ms total)
T4120 005:697 JLINK_ReadMem (0x4804023C, 0x0004 Bytes, ...) -- CPU is running -- CPU_ReadMem(4 bytes @ 0x4804023C) - Data: 00 00 00 00  returns 0x00 (0001ms, 0314ms total)
T4120 005:698 JLINK_ReadMem (0x48040270, 0x0004 Bytes, ...) -- CPU is running -- CPU_ReadMem(4 bytes @ 0x48040270) - Data: 5F 02 00 00  returns 0x00 (0001ms, 0315ms total)
T4120 005:699 JLINK_ReadMem (0x480402A0, 0x0008 Bytes, ...) -- CPU is running -- CPU_ReadMem(8 bytes @ 0x480402A0) - Data: 01 00 00 00 00 01 00 00  returns 0x00 (0001ms, 0316ms total)
T4120 005:700 JLINK_ReadMem (0x480402A8, 0x0004 Bytes, ...) -- CPU is running -- CPU_ReadMem(4 bytes @ 0x480402A8) - Data: 00 02 00 00  returns 0x00 (0001ms, 0317ms total)
T4120 005:702 JLINK_ReadMem (0x48040100, 0x0008 Bytes, ...) -- CPU is running -- CPU_ReadMem(8 bytes @ 0x48040100) - Data: 01 00 42 00 00 40 00 00  returns 0x00 (0001ms, 0318ms total)
T4120 005:703 JLINK_ReadMem (0x48040108, 0x0004 Bytes, ...) -- CPU is running -- CPU_ReadMem(4 bytes @ 0x48040108) - Data: 01 00 00 00  returns 0x00 (0001ms, 0319ms total)
T4120 005:704 JLINK_ReadMem (0x48040114, 0x0028 Bytes, ...) -- CPU is running -- CPU_ReadMem(40 bytes @ 0x48040114) - Data: 00 00 00 00 00 00 00 00 00 00 00 00 00 00 00 00 ...  returns 0x00 (0001ms, 0320ms total)
T4120 005:708 JLINK_ReadMem (0x4804013C, 0x0004 Bytes, ...) -- CPU is running -- CPU_ReadMem(4 bytes @ 0x4804013C) - Data: 06 00 00 00  returns 0x00 (0001ms, 0321ms total)
T4120 005:710 JLINK_ReadMem (0x48040170, 0x0004 Bytes, ...) -- CPU is running -- CPU_ReadMem(4 bytes @ 0x48040170) - Data: 00 00 00 00  returns 0x00 (0002ms, 0323ms total)
T4120 005:712 JLINK_ReadMem (0x480401A0, 0x0008 Bytes, ...) -- CPU is running -- CPU_ReadMem(8 bytes @ 0x480401A0) - Data: 00 00 00 00 04 01 00 00  returns 0x00 (0007ms, 0330ms total)
T4120 005:719 JLINK_ReadMem (0x480401A8, 0x0004 Bytes, ...) -- CPU is running -- CPU_ReadMem(4 bytes @ 0x480401A8) - Data: 04 00 00 00  returns 0x00 (0002ms, 0332ms total)
T212C 005:722 JLINK_IsHalted()  returns FALSE (0003ms, 0335ms total)
T212C 005:833 JLINK_IsHalted()  returns FALSE (0001ms, 0333ms total)
T212C 005:935 JLINK_IsHalted()  returns FALSE (0000ms, 0332ms total)
T212C 006:039 JLINK_IsHalted()  returns FALSE (0002ms, 0334ms total)
T212C 006:142 JLINK_IsHalted()  returns FALSE (0000ms, 0332ms total)
T4120 006:243 JLINK_ReadMem (0x48040200, 0x0008 Bytes, ...) -- CPU is running -- CPU_ReadMem(8 bytes @ 0x48040200) - Data: 11 00 09 00 90 00 00 00  returns 0x00 (0000ms, 0332ms total)
T4120 006:243 JLINK_ReadMem (0x48040208, 0x0004 Bytes, ...) -- CPU is running -- CPU_ReadMem(4 bytes @ 0x48040208) - Data: 01 00 00 00  returns 0x00 (0001ms, 0333ms total)
T4120 006:244 JLINK_ReadMem (0x48040214, 0x0028 Bytes, ...) -- CPU is running -- CPU_ReadMem(40 bytes @ 0x48040214) - Data: 68 00 00 00 00 00 00 00 00 00 00 00 00 00 00 00 ...  returns 0x00 (0001ms, 0334ms total)
T4120 006:245 JLINK_ReadMem (0x4804023C, 0x0004 Bytes, ...) -- CPU is running -- CPU_ReadMem(4 bytes @ 0x4804023C) - Data: 00 00 00 00  returns 0x00 (0000ms, 0334ms total)
T4120 006:245 JLINK_ReadMem (0x48040270, 0x0004 Bytes, ...) -- CPU is running -- CPU_ReadMem(4 bytes @ 0x48040270) - Data: 9F A3 00 00  returns 0x00 (0001ms, 0335ms total)
T4120 006:246 JLINK_ReadMem (0x480402A0, 0x0008 Bytes, ...) -- CPU is running -- CPU_ReadMem(8 bytes @ 0x480402A0) - Data: 01 00 00 00 00 01 00 00  returns 0x00 (0000ms, 0335ms total)
T4120 006:246 JLINK_ReadMem (0x480402A8, 0x0004 Bytes, ...) -- CPU is running -- CPU_ReadMem(4 bytes @ 0x480402A8) - Data: 00 02 00 00  returns 0x00 (0000ms, 0335ms total)
T4120 006:247 JLINK_ReadMem (0x48040100, 0x0008 Bytes, ...) -- CPU is running -- CPU_ReadMem(8 bytes @ 0x48040100) - Data: 01 00 42 00 00 40 00 00  returns 0x00 (0001ms, 0336ms total)
T4120 006:248 JLINK_ReadMem (0x48040108, 0x0004 Bytes, ...) -- CPU is running -- CPU_ReadMem(4 bytes @ 0x48040108) - Data: 01 00 00 00  returns 0x00 (0001ms, 0337ms total)
T4120 006:249 JLINK_ReadMem (0x48040114, 0x0028 Bytes, ...) -- CPU is running -- CPU_ReadMem(40 bytes @ 0x48040114) - Data: 00 00 00 00 00 00 00 00 00 00 00 00 00 00 00 00 ...  returns 0x00 (0001ms, 0338ms total)
T4120 006:250 JLINK_ReadMem (0x4804013C, 0x0004 Bytes, ...) -- CPU is running -- CPU_ReadMem(4 bytes @ 0x4804013C) - Data: 06 00 00 00  returns 0x00 (0001ms, 0339ms total)
T4120 006:251 JLINK_ReadMem (0x48040170, 0x0004 Bytes, ...) -- CPU is running -- CPU_ReadMem(4 bytes @ 0x48040170) - Data: 00 00 00 00  returns 0x00 (0000ms, 0339ms total)
T4120 006:251 JLINK_ReadMem (0x480401A0, 0x0008 Bytes, ...) -- CPU is running -- CPU_ReadMem(8 bytes @ 0x480401A0) - Data: 00 00 00 00 04 01 00 00  returns 0x00 (0001ms, 0340ms total)
T4120 006:252 JLINK_ReadMem (0x480401A8, 0x0004 Bytes, ...) -- CPU is running -- CPU_ReadMem(4 bytes @ 0x480401A8) - Data: 04 00 00 00  returns 0x00 (0001ms, 0341ms total)
T212C 006:253 JLINK_IsHalted()  returns FALSE (0001ms, 0342ms total)
T212C 006:419 JLINK_IsHalted()  returns FALSE (0000ms, 0341ms total)
T212C 006:520 JLINK_IsHalted()  returns FALSE (0000ms, 0341ms total)
T212C 006:621 JLINK_IsHalted()  returns FALSE (0000ms, 0341ms total)
T212C 006:721 JLINK_IsHalted()  returns FALSE (0001ms, 0342ms total)
T4120 006:822 JLINK_ReadMem (0x48040200, 0x0008 Bytes, ...) -- CPU is running -- CPU_ReadMem(8 bytes @ 0x48040200) - Data: 11 00 09 00 90 00 00 00  returns 0x00 (0000ms, 0341ms total)
T4120 006:822 JLINK_ReadMem (0x48040208, 0x0004 Bytes, ...) -- CPU is running -- CPU_ReadMem(4 bytes @ 0x48040208) - Data: 01 00 00 00  returns 0x00 (0001ms, 0342ms total)
T4120 006:823 JLINK_ReadMem (0x48040214, 0x0028 Bytes, ...) -- CPU is running -- CPU_ReadMem(40 bytes @ 0x48040214) - Data: 68 00 00 00 00 00 00 00 00 00 00 00 00 00 00 00 ...  returns 0x00 (0000ms, 0342ms total)
T4120 006:823 JLINK_ReadMem (0x4804023C, 0x0004 Bytes, ...) -- CPU is running -- CPU_ReadMem(4 bytes @ 0x4804023C) - Data: 00 00 00 00  returns 0x00 (0001ms, 0343ms total)
T4120 006:824 JLINK_ReadMem (0x48040270, 0x0004 Bytes, ...) -- CPU is running -- CPU_ReadMem(4 bytes @ 0x48040270) - Data: 56 A2 00 00  returns 0x00 (0000ms, 0343ms total)
T4120 006:824 JLINK_ReadMem (0x480402A0, 0x0008 Bytes, ...) -- CPU is running -- CPU_ReadMem(8 bytes @ 0x480402A0) - Data: 01 00 00 00 00 01 00 00  returns 0x00 (0001ms, 0344ms total)
T4120 006:825 JLINK_ReadMem (0x480402A8, 0x0004 Bytes, ...) -- CPU is running -- CPU_ReadMem(4 bytes @ 0x480402A8) - Data: 00 02 00 00  returns 0x00 (0000ms, 0344ms total)
T4120 006:826 JLINK_ReadMem (0x48040100, 0x0008 Bytes, ...) -- CPU is running -- CPU_ReadMem(8 bytes @ 0x48040100) - Data: 01 00 42 00 00 40 00 00  returns 0x00 (0000ms, 0344ms total)
T4120 006:826 JLINK_ReadMem (0x48040108, 0x0004 Bytes, ...) -- CPU is running -- CPU_ReadMem(4 bytes @ 0x48040108) - Data: 01 00 00 00  returns 0x00 (0000ms, 0344ms total)
T4120 006:826 JLINK_ReadMem (0x48040114, 0x0028 Bytes, ...) -- CPU is running -- CPU_ReadMem(40 bytes @ 0x48040114) - Data: 00 00 00 00 00 00 00 00 00 00 00 00 00 00 00 00 ...  returns 0x00 (0001ms, 0345ms total)
T4120 006:827 JLINK_ReadMem (0x4804013C, 0x0004 Bytes, ...) -- CPU is running -- CPU_ReadMem(4 bytes @ 0x4804013C) - Data: 06 00 00 00  returns 0x00 (0001ms, 0346ms total)
T4120 006:828 JLINK_ReadMem (0x48040170, 0x0004 Bytes, ...) -- CPU is running -- CPU_ReadMem(4 bytes @ 0x48040170) - Data: 00 00 00 00  returns 0x00 (0000ms, 0346ms total)
T4120 006:828 JLINK_ReadMem (0x480401A0, 0x0008 Bytes, ...) -- CPU is running -- CPU_ReadMem(8 bytes @ 0x480401A0) - Data: 00 00 00 00 04 01 00 00  returns 0x00 (0000ms, 0346ms total)
T4120 006:828 JLINK_ReadMem (0x480401A8, 0x0004 Bytes, ...) -- CPU is running -- CPU_ReadMem(4 bytes @ 0x480401A8) - Data: 04 00 00 00  returns 0x00 (0001ms, 0347ms total)
T212C 006:829 JLINK_IsHalted()  returns FALSE (0001ms, 0348ms total)
T212C 006:931 JLINK_IsHalted()  returns FALSE (0000ms, 0347ms total)
T212C 007:032 JLINK_IsHalted()  returns FALSE (0000ms, 0347ms total)
T212C 007:132 JLINK_IsHalted()  returns FALSE (0000ms, 0347ms total)
T212C 007:233 JLINK_IsHalted()  returns FALSE (0001ms, 0348ms total)
T4120 007:334 JLINK_ReadMem (0x48040200, 0x0008 Bytes, ...) -- CPU is running -- CPU_ReadMem(8 bytes @ 0x48040200) - Data: 11 00 09 00 90 00 00 00  returns 0x00 (0001ms, 0348ms total)
T4120 007:335 JLINK_ReadMem (0x48040208, 0x0004 Bytes, ...) -- CPU is running -- CPU_ReadMem(4 bytes @ 0x48040208) - Data: 01 00 00 00  returns 0x00 (0000ms, 0348ms total)
T4120 007:335 JLINK_ReadMem (0x48040214, 0x0028 Bytes, ...) -- CPU is running -- CPU_ReadMem(40 bytes @ 0x48040214) - Data: 68 00 00 00 00 00 00 00 00 00 00 00 00 00 00 00 ...  returns 0x00 (0001ms, 0349ms total)
T4120 007:336 JLINK_ReadMem (0x4804023C, 0x0004 Bytes, ...) -- CPU is running -- CPU_ReadMem(4 bytes @ 0x4804023C) - Data: 00 00 00 00  returns 0x00 (0000ms, 0349ms total)
T4120 007:336 JLINK_ReadMem (0x48040270, 0x0004 Bytes, ...) -- CPU is running -- CPU_ReadMem(4 bytes @ 0x48040270) - Data: 96 B2 00 00  returns 0x00 (0001ms, 0350ms total)
T4120 007:337 JLINK_ReadMem (0x480402A0, 0x0008 Bytes, ...) -- CPU is running -- CPU_ReadMem(8 bytes @ 0x480402A0) - Data: 01 02 00 00 00 01 00 00  returns 0x00 (0001ms, 0351ms total)
T4120 007:338 JLINK_ReadMem (0x480402A8, 0x0004 Bytes, ...) -- CPU is running -- CPU_ReadMem(4 bytes @ 0x480402A8) - Data: 00 02 00 00  returns 0x00 (0000ms, 0351ms total)
T4120 007:339 JLINK_ReadMem (0x48040100, 0x0008 Bytes, ...) -- CPU is running -- CPU_ReadMem(8 bytes @ 0x48040100) - Data: 01 00 42 00 00 40 00 00  returns 0x00 (0001ms, 0352ms total)
T4120 007:340 JLINK_ReadMem (0x48040108, 0x0004 Bytes, ...) -- CPU is running -- CPU_ReadMem(4 bytes @ 0x48040108) - Data: 01 00 00 00  returns 0x00 (0000ms, 0352ms total)
T4120 007:340 JLINK_ReadMem (0x48040114, 0x0028 Bytes, ...) -- CPU is running -- CPU_ReadMem(40 bytes @ 0x48040114) - Data: 00 00 00 00 00 00 00 00 00 00 00 00 00 00 00 00 ...  returns 0x00 (0001ms, 0353ms total)
T4120 007:341 JLINK_ReadMem (0x4804013C, 0x0004 Bytes, ...) -- CPU is running -- CPU_ReadMem(4 bytes @ 0x4804013C) - Data: 06 00 00 00  returns 0x00 (0001ms, 0354ms total)
T4120 007:342 JLINK_ReadMem (0x48040170, 0x0004 Bytes, ...) -- CPU is running -- CPU_ReadMem(4 bytes @ 0x48040170) - Data: 01 00 00 00  returns 0x00 (0001ms, 0355ms total)
T4120 007:343 JLINK_ReadMem (0x480401A0, 0x0008 Bytes, ...) -- CPU is running -- CPU_ReadMem(8 bytes @ 0x480401A0) - Data: 00 01 00 00 04 01 00 00  returns 0x00 (0000ms, 0355ms total)
T4120 007:343 JLINK_ReadMem (0x480401A8, 0x0004 Bytes, ...) -- CPU is running -- CPU_ReadMem(4 bytes @ 0x480401A8) - Data: 04 00 00 00  returns 0x00 (0002ms, 0357ms total)
T212C 007:352 JLINK_IsHalted()  returns FALSE (0001ms, 0358ms total)
T212C 007:454 JLINK_IsHalted()  returns FALSE (0000ms, 0357ms total)
T212C 007:555 JLINK_IsHalted()  returns FALSE (0000ms, 0357ms total)
T212C 007:656 JLINK_IsHalted()  returns FALSE (0000ms, 0357ms total)
T212C 007:757 JLINK_IsHalted()  returns FALSE (0000ms, 0357ms total)
T4120 007:859 JLINK_ReadMem (0x48040200, 0x0008 Bytes, ...) -- CPU is running -- CPU_ReadMem(8 bytes @ 0x48040200) - Data: 11 00 09 00 90 00 00 00  returns 0x00 (0000ms, 0357ms total)
T4120 007:859 JLINK_ReadMem (0x48040208, 0x0004 Bytes, ...) -- CPU is running -- CPU_ReadMem(4 bytes @ 0x48040208) - Data: 01 00 00 00  returns 0x00 (0001ms, 0358ms total)
T4120 007:860 JLINK_ReadMem (0x48040214, 0x0028 Bytes, ...) -- CPU is running -- CPU_ReadMem(40 bytes @ 0x48040214) - Data: 68 00 00 00 00 00 00 00 00 00 00 00 00 00 00 00 ...  returns 0x00 (0000ms, 0358ms total)
T4120 007:860 JLINK_ReadMem (0x4804023C, 0x0004 Bytes, ...) -- CPU is running -- CPU_ReadMem(4 bytes @ 0x4804023C) - Data: 00 00 00 00  returns 0x00 (0001ms, 0359ms total)
T4120 007:861 JLINK_ReadMem (0x48040270, 0x0004 Bytes, ...) -- CPU is running -- CPU_ReadMem(4 bytes @ 0x48040270) - Data: 46 F6 00 00  returns 0x00 (0000ms, 0359ms total)
T4120 007:861 JLINK_ReadMem (0x480402A0, 0x0008 Bytes, ...) -- CPU is running -- CPU_ReadMem(8 bytes @ 0x480402A0) - Data: 01 02 00 00 00 01 00 00  returns 0x00 (0001ms, 0360ms total)
T4120 007:862 JLINK_ReadMem (0x480402A8, 0x0004 Bytes, ...) -- CPU is running -- CPU_ReadMem(4 bytes @ 0x480402A8) - Data: 00 02 00 00  returns 0x00 (0001ms, 0361ms total)
T4120 007:863 JLINK_ReadMem (0x48040100, 0x0008 Bytes, ...) -- CPU is running -- CPU_ReadMem(8 bytes @ 0x48040100) - Data: 01 00 42 00 00 40 00 00  returns 0x00 (0001ms, 0362ms total)
T4120 007:864 JLINK_ReadMem (0x48040108, 0x0004 Bytes, ...) -- CPU is running -- CPU_ReadMem(4 bytes @ 0x48040108) - Data: 01 00 00 00  returns 0x00 (0000ms, 0362ms total)
T4120 007:864 JLINK_ReadMem (0x48040114, 0x0028 Bytes, ...) -- CPU is running -- CPU_ReadMem(40 bytes @ 0x48040114) - Data: 00 00 00 00 00 00 00 00 00 00 00 00 00 00 00 00 ...  returns 0x00 (0001ms, 0363ms total)
T4120 007:865 JLINK_ReadMem (0x4804013C, 0x0004 Bytes, ...) -- CPU is running -- CPU_ReadMem(4 bytes @ 0x4804013C) - Data: 06 00 00 00  returns 0x00 (0001ms, 0364ms total)
T4120 007:866 JLINK_ReadMem (0x48040170, 0x0004 Bytes, ...) -- CPU is running -- CPU_ReadMem(4 bytes @ 0x48040170) - Data: 01 00 00 00  returns 0x00 (0000ms, 0364ms total)
T4120 007:866 JLINK_ReadMem (0x480401A0, 0x0008 Bytes, ...) -- CPU is running -- CPU_ReadMem(8 bytes @ 0x480401A0) - Data: 00 01 00 00 04 01 00 00  returns 0x00 (0002ms, 0366ms total)
T4120 007:868 JLINK_ReadMem (0x480401A8, 0x0004 Bytes, ...) -- CPU is running -- CPU_ReadMem(4 bytes @ 0x480401A8) - Data: 04 00 00 00  returns 0x00 (0000ms, 0366ms total)
T212C 007:869 JLINK_IsHalted()  returns FALSE (0001ms, 0367ms total)
T212C 007:971 JLINK_IsHalted()  returns FALSE (0000ms, 0366ms total)
T212C 008:071 JLINK_IsHalted()  returns FALSE (0000ms, 0366ms total)
T212C 008:173 JLINK_IsHalted()  returns FALSE (0000ms, 0366ms total)
T212C 008:274 JLINK_IsHalted()  returns FALSE (0000ms, 0366ms total)
T4120 008:375 JLINK_ReadMem (0x48040200, 0x0008 Bytes, ...) -- CPU is running -- CPU_ReadMem(8 bytes @ 0x48040200) - Data: 11 00 09 00 90 00 00 00  returns 0x00 (0000ms, 0366ms total)
T4120 008:375 JLINK_ReadMem (0x48040208, 0x0004 Bytes, ...) -- CPU is running -- CPU_ReadMem(4 bytes @ 0x48040208) - Data: 01 00 00 00  returns 0x00 (0000ms, 0366ms total)
T4120 008:375 JLINK_ReadMem (0x48040214, 0x0028 Bytes, ...) -- CPU is running -- CPU_ReadMem(40 bytes @ 0x48040214) - Data: 68 00 00 00 00 00 00 00 00 00 00 00 00 00 00 00 ...  returns 0x00 (0001ms, 0367ms total)
T4120 008:376 JLINK_ReadMem (0x4804023C, 0x0004 Bytes, ...) -- CPU is running -- CPU_ReadMem(4 bytes @ 0x4804023C) - Data: 00 00 00 00  returns 0x00 (0001ms, 0368ms total)
T4120 008:377 JLINK_ReadMem (0x48040270, 0x0004 Bytes, ...) -- CPU is running -- CPU_ReadMem(4 bytes @ 0x48040270) - Data: D8 08 00 00  returns 0x00 (0000ms, 0368ms total)
T4120 008:377 JLINK_ReadMem (0x480402A0, 0x0008 Bytes, ...) -- CPU is running -- CPU_ReadMem(8 bytes @ 0x480402A0) - Data: 01 02 00 00 00 01 00 00  returns 0x00 (0000ms, 0368ms total)
T4120 008:377 JLINK_ReadMem (0x480402A8, 0x0004 Bytes, ...) -- CPU is running -- CPU_ReadMem(4 bytes @ 0x480402A8) - Data: 00 02 00 00  returns 0x00 (0001ms, 0369ms total)
T4120 008:378 JLINK_ReadMem (0x48040100, 0x0008 Bytes, ...) -- CPU is running -- CPU_ReadMem(8 bytes @ 0x48040100) - Data: 01 00 42 00 00 40 00 00  returns 0x00 (0001ms, 0370ms total)
T4120 008:379 JLINK_ReadMem (0x48040108, 0x0004 Bytes, ...) -- CPU is running -- CPU_ReadMem(4 bytes @ 0x48040108) - Data: 01 00 00 00  returns 0x00 (0001ms, 0371ms total)
T4120 008:380 JLINK_ReadMem (0x48040114, 0x0028 Bytes, ...) -- CPU is running -- CPU_ReadMem(40 bytes @ 0x48040114) - Data: 00 00 00 00 00 00 00 00 00 00 00 00 00 00 00 00 ...  returns 0x00 (0001ms, 0372ms total)
T4120 008:381 JLINK_ReadMem (0x4804013C, 0x0004 Bytes, ...) -- CPU is running -- CPU_ReadMem(4 bytes @ 0x4804013C) - Data: 06 00 00 00  returns 0x00 (0001ms, 0373ms total)
T4120 008:382 JLINK_ReadMem (0x48040170, 0x0004 Bytes, ...) -- CPU is running -- CPU_ReadMem(4 bytes @ 0x48040170) - Data: 01 00 00 00  returns 0x00 (0000ms, 0373ms total)
T4120 008:382 JLINK_ReadMem (0x480401A0, 0x0008 Bytes, ...) -- CPU is running -- CPU_ReadMem(8 bytes @ 0x480401A0) - Data: 00 01 00 00 04 01 00 00  returns 0x00 (0001ms, 0374ms total)
T4120 008:383 JLINK_ReadMem (0x480401A8, 0x0004 Bytes, ...) -- CPU is running -- CPU_ReadMem(4 bytes @ 0x480401A8) - Data: 04 00 00 00  returns 0x00 (0001ms, 0375ms total)
T212C 008:384 JLINK_IsHalted()  returns FALSE (0001ms, 0376ms total)
T212C 008:486 JLINK_IsHalted()  returns FALSE (0000ms, 0375ms total)
T212C 008:587 JLINK_IsHalted()  returns FALSE (0000ms, 0375ms total)
T212C 008:688 JLINK_IsHalted()  returns FALSE (0000ms, 0375ms total)
T212C 008:789 JLINK_IsHalted()  returns FALSE (0000ms, 0375ms total)
T4120 008:891 JLINK_ReadMem (0x48040200, 0x0008 Bytes, ...) -- CPU is running -- CPU_ReadMem(8 bytes @ 0x48040200) - Data: 11 00 09 00 90 00 00 00  returns 0x00 (0000ms, 0375ms total)
T4120 008:891 JLINK_ReadMem (0x48040208, 0x0004 Bytes, ...) -- CPU is running -- CPU_ReadMem(4 bytes @ 0x48040208) - Data: 01 00 00 00  returns 0x00 (0001ms, 0376ms total)
T4120 008:892 JLINK_ReadMem (0x48040214, 0x0028 Bytes, ...) -- CPU is running -- CPU_ReadMem(40 bytes @ 0x48040214) - Data: 68 00 00 00 00 00 00 00 00 00 00 00 00 00 00 00 ...  returns 0x00 (0001ms, 0377ms total)
T4120 008:893 JLINK_ReadMem (0x4804023C, 0x0004 Bytes, ...) -- CPU is running -- CPU_ReadMem(4 bytes @ 0x4804023C) - Data: 00 00 00 00  returns 0x00 (0001ms, 0378ms total)
T4120 008:894 JLINK_ReadMem (0x48040270, 0x0004 Bytes, ...) -- CPU is running -- CPU_ReadMem(4 bytes @ 0x48040270) - Data: 76 60 00 00  returns 0x00 (0001ms, 0379ms total)
T4120 008:895 JLINK_ReadMem (0x480402A0, 0x0008 Bytes, ...) -- CPU is running -- CPU_ReadMem(8 bytes @ 0x480402A0) - Data: 01 02 00 00 00 01 00 00  returns 0x00 (0001ms, 0380ms total)
T4120 008:896 JLINK_ReadMem (0x480402A8, 0x0004 Bytes, ...) -- CPU is running -- CPU_ReadMem(4 bytes @ 0x480402A8) - Data: 00 02 00 00  returns 0x00 (0000ms, 0380ms total)
T4120 008:897 JLINK_ReadMem (0x48040100, 0x0008 Bytes, ...) -- CPU is running -- CPU_ReadMem(8 bytes @ 0x48040100) - Data: 01 00 42 00 00 40 00 00  returns 0x00 (0000ms, 0380ms total)
T4120 008:897 JLINK_ReadMem (0x48040108, 0x0004 Bytes, ...) -- CPU is running -- CPU_ReadMem(4 bytes @ 0x48040108) - Data: 01 00 00 00  returns 0x00 (0001ms, 0381ms total)
T4120 008:898 JLINK_ReadMem (0x48040114, 0x0028 Bytes, ...) -- CPU is running -- CPU_ReadMem(40 bytes @ 0x48040114) - Data: 00 00 00 00 00 00 00 00 00 00 00 00 00 00 00 00 ...  returns 0x00 (0001ms, 0382ms total)
T4120 008:899 JLINK_ReadMem (0x4804013C, 0x0004 Bytes, ...) -- CPU is running -- CPU_ReadMem(4 bytes @ 0x4804013C) - Data: 06 00 00 00  returns 0x00 (0001ms, 0383ms total)
T4120 008:900 JLINK_ReadMem (0x48040170, 0x0004 Bytes, ...) -- CPU is running -- CPU_ReadMem(4 bytes @ 0x48040170) - Data: 02 00 00 00  returns 0x00 (0001ms, 0384ms total)
T4120 008:901 JLINK_ReadMem (0x480401A0, 0x0008 Bytes, ...) -- CPU is running -- CPU_ReadMem(8 bytes @ 0x480401A0) - Data: 00 01 00 00 04 01 00 00  returns 0x00 (0000ms, 0384ms total)
T4120 008:901 JLINK_ReadMem (0x480401A8, 0x0004 Bytes, ...) -- CPU is running -- CPU_ReadMem(4 bytes @ 0x480401A8) - Data: 04 00 00 00  returns 0x00 (0001ms, 0385ms total)
T212C 008:906 JLINK_IsHalted()  returns FALSE (0001ms, 0386ms total)
T212C 009:008 JLINK_IsHalted()  returns FALSE (0000ms, 0385ms total)
T212C 009:109 JLINK_IsHalted()  returns FALSE (0000ms, 0385ms total)
T212C 009:210 JLINK_IsHalted()  returns FALSE (0000ms, 0385ms total)
T212C 009:312 JLINK_IsHalted()  returns FALSE (0052ms, 0437ms total)
T4120 009:465 JLINK_ReadMem (0x48040200, 0x0008 Bytes, ...) -- CPU is running -- CPU_ReadMem(8 bytes @ 0x48040200) - Data: 11 00 09 00 90 00 00 00  returns 0x00 (0000ms, 0385ms total)
T4120 009:465 JLINK_ReadMem (0x48040208, 0x0004 Bytes, ...) -- CPU is running -- CPU_ReadMem(4 bytes @ 0x48040208) - Data: 01 00 00 00  returns 0x00 (0001ms, 0386ms total)
T4120 009:466 JLINK_ReadMem (0x48040214, 0x0028 Bytes, ...) -- CPU is running -- CPU_ReadMem(40 bytes @ 0x48040214) - Data: 68 00 00 00 00 00 00 00 00 00 00 00 00 00 00 00 ...  returns 0x00 (0001ms, 0387ms total)
T4120 009:467 JLINK_ReadMem (0x4804023C, 0x0004 Bytes, ...) -- CPU is running -- CPU_ReadMem(4 bytes @ 0x4804023C) - Data: 00 00 00 00  returns 0x00 (0000ms, 0387ms total)
T4120 009:467 JLINK_ReadMem (0x48040270, 0x0004 Bytes, ...) -- CPU is running -- CPU_ReadMem(4 bytes @ 0x48040270) - Data: D0 45 00 00  returns 0x00 (0001ms, 0388ms total)
T4120 009:468 JLINK_ReadMem (0x480402A0, 0x0008 Bytes, ...) -- CPU is running -- CPU_ReadMem(8 bytes @ 0x480402A0) - Data: 01 02 00 00 00 01 00 00  returns 0x00 (0000ms, 0388ms total)
T4120 009:468 JLINK_ReadMem (0x480402A8, 0x0004 Bytes, ...) -- CPU is running -- CPU_ReadMem(4 bytes @ 0x480402A8) - Data: 00 02 00 00  returns 0x00 (0001ms, 0389ms total)
T4120 009:469 JLINK_ReadMem (0x48040100, 0x0008 Bytes, ...) -- CPU is running -- CPU_ReadMem(8 bytes @ 0x48040100) - Data: 01 00 42 00 00 40 00 00  returns 0x00 (0001ms, 0390ms total)
T4120 009:470 JLINK_ReadMem (0x48040108, 0x0004 Bytes, ...) -- CPU is running -- CPU_ReadMem(4 bytes @ 0x48040108) - Data: 01 00 00 00  returns 0x00 (0001ms, 0391ms total)
T4120 009:471 JLINK_ReadMem (0x48040114, 0x0028 Bytes, ...) -- CPU is running -- CPU_ReadMem(40 bytes @ 0x48040114) - Data: 00 00 00 00 00 00 00 00 00 00 00 00 00 00 00 00 ...  returns 0x00 (0001ms, 0392ms total)
T4120 009:472 JLINK_ReadMem (0x4804013C, 0x0004 Bytes, ...) -- CPU is running -- CPU_ReadMem(4 bytes @ 0x4804013C) - Data: 06 00 00 00  returns 0x00 (0000ms, 0392ms total)
T4120 009:472 JLINK_ReadMem (0x48040170, 0x0004 Bytes, ...) -- CPU is running -- CPU_ReadMem(4 bytes @ 0x48040170) - Data: 02 00 00 00  returns 0x00 (0001ms, 0393ms total)
T4120 009:473 JLINK_ReadMem (0x480401A0, 0x0008 Bytes, ...) -- CPU is running -- CPU_ReadMem(8 bytes @ 0x480401A0) - Data: 00 01 00 00 04 01 00 00  returns 0x00 (0001ms, 0394ms total)
T4120 009:474 JLINK_ReadMem (0x480401A8, 0x0004 Bytes, ...) -- CPU is running -- CPU_ReadMem(4 bytes @ 0x480401A8) - Data: 04 00 00 00  returns 0x00 (0001ms, 0395ms total)
T212C 009:475 JLINK_IsHalted()  returns FALSE (0001ms, 0396ms total)
T212C 009:577 JLINK_IsHalted()  returns FALSE (0000ms, 0395ms total)
T212C 009:678 JLINK_IsHalted()  returns FALSE (0000ms, 0395ms total)
T212C 009:780 JLINK_IsHalted()  returns FALSE (0000ms, 0395ms total)
T212C 009:880 JLINK_IsHalted()  returns FALSE (0000ms, 0395ms total)
T4120 009:981 JLINK_ReadMem (0x48040200, 0x0008 Bytes, ...) -- CPU is running -- CPU_ReadMem(8 bytes @ 0x48040200) - Data: 11 00 09 00 90 00 00 00  returns 0x00 (0000ms, 0395ms total)
T4120 009:981 JLINK_ReadMem (0x48040208, 0x0004 Bytes, ...) -- CPU is running -- CPU_ReadMem(4 bytes @ 0x48040208) - Data: 01 00 00 00  returns 0x00 (0001ms, 0396ms total)
T4120 009:982 JLINK_ReadMem (0x48040214, 0x0028 Bytes, ...) -- CPU is running -- CPU_ReadMem(40 bytes @ 0x48040214) - Data: 68 00 00 00 00 00 00 00 00 00 00 00 00 00 00 00 ...  returns 0x00 (0001ms, 0397ms total)
T4120 009:983 JLINK_ReadMem (0x4804023C, 0x0004 Bytes, ...) -- CPU is running -- CPU_ReadMem(4 bytes @ 0x4804023C) - Data: 00 00 00 00  returns 0x00 (0001ms, 0398ms total)
T4120 009:984 JLINK_ReadMem (0x48040270, 0x0004 Bytes, ...) -- CPU is running -- CPU_ReadMem(4 bytes @ 0x48040270) - Data: FE 47 00 00  returns 0x00 (0000ms, 0398ms total)
T4120 009:984 JLINK_ReadMem (0x480402A0, 0x0008 Bytes, ...) -- CPU is running -- CPU_ReadMem(8 bytes @ 0x480402A0) - Data: 01 02 00 00 00 01 00 00  returns 0x00 (0001ms, 0399ms total)
T4120 009:985 JLINK_ReadMem (0x480402A8, 0x0004 Bytes, ...) -- CPU is running -- CPU_ReadMem(4 bytes @ 0x480402A8) - Data: 00 02 00 00  returns 0x00 (0001ms, 0400ms total)
T4120 009:986 JLINK_ReadMem (0x48040100, 0x0008 Bytes, ...) -- CPU is running -- CPU_ReadMem(8 bytes @ 0x48040100) - Data: 01 00 42 00 00 40 00 00  returns 0x00 (0001ms, 0401ms total)
T4120 009:987 JLINK_ReadMem (0x48040108, 0x0004 Bytes, ...) -- CPU is running -- CPU_ReadMem(4 bytes @ 0x48040108) - Data: 01 00 00 00  returns 0x00 (0001ms, 0402ms total)
T4120 009:988 JLINK_ReadMem (0x48040114, 0x0028 Bytes, ...) -- CPU is running -- CPU_ReadMem(40 bytes @ 0x48040114) - Data: 00 00 00 00 00 00 00 00 00 00 00 00 00 00 00 00 ...  returns 0x00 (0001ms, 0403ms total)
T4120 009:989 JLINK_ReadMem (0x4804013C, 0x0004 Bytes, ...) -- CPU is running -- CPU_ReadMem(4 bytes @ 0x4804013C) - Data: 06 00 00 00  returns 0x00 (0000ms, 0403ms total)
T4120 009:989 JLINK_ReadMem (0x48040170, 0x0004 Bytes, ...) -- CPU is running -- CPU_ReadMem(4 bytes @ 0x48040170) - Data: 02 00 00 00  returns 0x00 (0001ms, 0404ms total)
T4120 009:990 JLINK_ReadMem (0x480401A0, 0x0008 Bytes, ...) -- CPU is running -- CPU_ReadMem(8 bytes @ 0x480401A0) - Data: 00 01 00 00 04 01 00 00  returns 0x00 (0001ms, 0405ms total)
T4120 009:991 JLINK_ReadMem (0x480401A8, 0x0004 Bytes, ...) -- CPU is running -- CPU_ReadMem(4 bytes @ 0x480401A8) - Data: 04 00 00 00  returns 0x00 (0000ms, 0405ms total)
T212C 009:992 JLINK_IsHalted()  returns FALSE (0001ms, 0406ms total)
T212C 010:094 JLINK_IsHalted()  returns FALSE (0000ms, 0405ms total)
T212C 010:195 JLINK_IsHalted()  returns FALSE (0000ms, 0405ms total)
T212C 010:296 JLINK_IsHalted()  returns FALSE (0000ms, 0405ms total)
T212C 010:398 JLINK_IsHalted()  returns FALSE (0000ms, 0405ms total)
T4120 010:499 JLINK_ReadMem (0x48040200, 0x0008 Bytes, ...) -- CPU is running -- CPU_ReadMem(8 bytes @ 0x48040200) - Data: 11 00 09 00 90 00 00 00  returns 0x00 (0000ms, 0405ms total)
T4120 010:499 JLINK_ReadMem (0x48040208, 0x0004 Bytes, ...) -- CPU is running -- CPU_ReadMem(4 bytes @ 0x48040208) - Data: 01 00 00 00  returns 0x00 (0001ms, 0406ms total)
T4120 010:500 JLINK_ReadMem (0x48040214, 0x0028 Bytes, ...) -- CPU is running -- CPU_ReadMem(40 bytes @ 0x48040214) - Data: 68 00 00 00 00 00 00 00 00 00 00 00 00 00 00 00 ...  returns 0x00 (0001ms, 0407ms total)
T4120 010:501 JLINK_ReadMem (0x4804023C, 0x0004 Bytes, ...) -- CPU is running -- CPU_ReadMem(4 bytes @ 0x4804023C) - Data: 00 00 00 00  returns 0x00 (0001ms, 0408ms total)
T4120 010:502 JLINK_ReadMem (0x48040270, 0x0004 Bytes, ...) -- CPU is running -- CPU_ReadMem(4 bytes @ 0x48040270) - Data: 7E CF 00 00  returns 0x00 (0001ms, 0409ms total)
T4120 010:503 JLINK_ReadMem (0x480402A0, 0x0008 Bytes, ...) -- CPU is running -- CPU_ReadMem(8 bytes @ 0x480402A0) - Data: 01 02 00 00 00 01 00 00  returns 0x00 (0000ms, 0409ms total)
T4120 010:503 JLINK_ReadMem (0x480402A8, 0x0004 Bytes, ...) -- CPU is running -- CPU_ReadMem(4 bytes @ 0x480402A8) - Data: 00 02 00 00  returns 0x00 (0001ms, 0410ms total)
T4120 010:505 JLINK_ReadMem (0x48040100, 0x0008 Bytes, ...) -- CPU is running -- CPU_ReadMem(8 bytes @ 0x48040100) - Data: 01 00 42 00 00 40 00 00  returns 0x00 (0000ms, 0410ms total)
T4120 010:505 JLINK_ReadMem (0x48040108, 0x0004 Bytes, ...) -- CPU is running -- CPU_ReadMem(4 bytes @ 0x48040108) - Data: 01 00 00 00  returns 0x00 (0001ms, 0411ms total)
T4120 010:506 JLINK_ReadMem (0x48040114, 0x0028 Bytes, ...) -- CPU is running -- CPU_ReadMem(40 bytes @ 0x48040114) - Data: 00 00 00 00 00 00 00 00 00 00 00 00 00 00 00 00 ...  returns 0x00 (0001ms, 0412ms total)
